Title: dc transfer function
Date: Wed Sep 26 14:43:09  2012
Plotname: DC transfer characteristic
Flags: real
No. Variables: 5
No. Points: 121     
Variables:
	0	v(v-sweep)	voltage
	1	v(1)	voltage
	2	v(2)	voltage
	3	i(v2)	current
	4	i(v1)	current
Values:
0		0.000000000000000e+00
	0.000000000000000e+00
	0.000000000000000e+00
	0.000000000000000e+00
	0.000000000000000e+00
1		1.000000000000000e+00
	1.000000000000000e+00
	0.000000000000000e+00
	1.000000000000000e-03
	-1.000000000000000e-03
2		2.000000000000000e+00
	2.000000000000000e+00
	0.000000000000000e+00
	2.000000000000000e-03
	-2.000000000000000e-03
3		3.000000000000000e+00
	3.000000000000000e+00
	0.000000000000000e+00
	3.000000000000000e-03
	-3.000000000000000e-03
4		4.000000000000000e+00
	4.000000000000000e+00
	0.000000000000000e+00
	4.000000000000000e-03
	-4.000000000000000e-03
5		5.000000000000000e+00
	5.000000000000000e+00
	0.000000000000000e+00
	5.000000000000000e-03
	-5.000000000000000e-03
6		6.000000000000000e+00
	6.000000000000000e+00
	0.000000000000000e+00
	6.000000000000000e-03
	-6.000000000000000e-03
7		7.000000000000000e+00
	7.000000000000000e+00
	0.000000000000000e+00
	7.000000000000000e-03
	-7.000000000000000e-03
8		8.000000000000000e+00
	8.000000000000000e+00
	0.000000000000000e+00
	8.000000000000000e-03
	-8.000000000000000e-03
9		9.000000000000000e+00
	9.000000000000000e+00
	0.000000000000000e+00
	9.000000000000001e-03
	-9.000000000000001e-03
10		1.000000000000000e+01
	1.000000000000000e+01
	0.000000000000000e+00
	1.000000000000000e-02
	-1.000000000000000e-02
11		0.000000000000000e+00
	0.000000000000000e+00
	1.000000000000000e+00
	-1.000000000000000e-03
	1.000000000000000e-03
12		1.000000000000000e+00
	1.000000000000000e+00
	1.000000000000000e+00
	0.000000000000000e+00
	0.000000000000000e+00
13		2.000000000000000e+00
	2.000000000000000e+00
	1.000000000000000e+00
	1.000000000000000e-03
	-1.000000000000000e-03
14		3.000000000000000e+00
	3.000000000000000e+00
	1.000000000000000e+00
	2.000000000000000e-03
	-2.000000000000000e-03
15		4.000000000000000e+00
	4.000000000000000e+00
	1.000000000000000e+00
	3.000000000000000e-03
	-3.000000000000000e-03
16		5.000000000000000e+00
	5.000000000000000e+00
	1.000000000000000e+00
	4.000000000000000e-03
	-4.000000000000000e-03
17		6.000000000000000e+00
	6.000000000000000e+00
	1.000000000000000e+00
	5.000000000000000e-03
	-5.000000000000000e-03
18		7.000000000000000e+00
	7.000000000000000e+00
	1.000000000000000e+00
	6.000000000000000e-03
	-6.000000000000000e-03
19		8.000000000000000e+00
	8.000000000000000e+00
	1.000000000000000e+00
	7.000000000000000e-03
	-7.000000000000000e-03
20		9.000000000000000e+00
	9.000000000000000e+00
	1.000000000000000e+00
	8.000000000000000e-03
	-8.000000000000000e-03
21		1.000000000000000e+01
	1.000000000000000e+01
	1.000000000000000e+00
	9.000000000000001e-03
	-9.000000000000001e-03
22		0.000000000000000e+00
	0.000000000000000e+00
	2.000000000000000e+00
	-2.000000000000000e-03
	2.000000000000000e-03
23		1.000000000000000e+00
	1.000000000000000e+00
	2.000000000000000e+00
	-1.000000000000000e-03
	1.000000000000000e-03
24		2.000000000000000e+00
	2.000000000000000e+00
	2.000000000000000e+00
	0.000000000000000e+00
	0.000000000000000e+00
25		3.000000000000000e+00
	3.000000000000000e+00
	2.000000000000000e+00
	1.000000000000000e-03
	-1.000000000000000e-03
26		4.000000000000000e+00
	4.000000000000000e+00
	2.000000000000000e+00
	2.000000000000000e-03
	-2.000000000000000e-03
27		5.000000000000000e+00
	5.000000000000000e+00
	2.000000000000000e+00
	3.000000000000000e-03
	-3.000000000000000e-03
28		6.000000000000000e+00
	6.000000000000000e+00
	2.000000000000000e+00
	4.000000000000000e-03
	-4.000000000000000e-03
29		7.000000000000000e+00
	7.000000000000000e+00
	2.000000000000000e+00
	5.000000000000000e-03
	-5.000000000000000e-03
30		8.000000000000000e+00
	8.000000000000000e+00
	2.000000000000000e+00
	6.000000000000000e-03
	-6.000000000000000e-03
31		9.000000000000000e+00
	9.000000000000000e+00
	2.000000000000000e+00
	7.000000000000001e-03
	-7.000000000000001e-03
32		1.000000000000000e+01
	1.000000000000000e+01
	2.000000000000000e+00
	8.000000000000000e-03
	-8.000000000000000e-03
33		0.000000000000000e+00
	0.000000000000000e+00
	3.000000000000000e+00
	-3.000000000000000e-03
	3.000000000000000e-03
34		1.000000000000000e+00
	1.000000000000000e+00
	3.000000000000000e+00
	-2.000000000000000e-03
	2.000000000000000e-03
35		2.000000000000000e+00
	2.000000000000000e+00
	3.000000000000000e+00
	-1.000000000000000e-03
	1.000000000000000e-03
36		3.000000000000000e+00
	3.000000000000000e+00
	3.000000000000000e+00
	0.000000000000000e+00
	0.000000000000000e+00
37		4.000000000000000e+00
	4.000000000000000e+00
	3.000000000000000e+00
	1.000000000000000e-03
	-1.000000000000000e-03
38		5.000000000000000e+00
	5.000000000000000e+00
	3.000000000000000e+00
	2.000000000000000e-03
	-2.000000000000000e-03
39		6.000000000000000e+00
	6.000000000000000e+00
	3.000000000000000e+00
	3.000000000000000e-03
	-3.000000000000000e-03
40		7.000000000000000e+00
	7.000000000000000e+00
	3.000000000000000e+00
	4.000000000000000e-03
	-4.000000000000000e-03
41		8.000000000000000e+00
	8.000000000000000e+00
	3.000000000000000e+00
	5.000000000000000e-03
	-5.000000000000000e-03
42		9.000000000000000e+00
	9.000000000000000e+00
	3.000000000000000e+00
	6.000000000000001e-03
	-6.000000000000001e-03
43		1.000000000000000e+01
	1.000000000000000e+01
	3.000000000000000e+00
	7.000000000000000e-03
	-7.000000000000000e-03
44		0.000000000000000e+00
	0.000000000000000e+00
	4.000000000000000e+00
	-4.000000000000000e-03
	4.000000000000000e-03
45		1.000000000000000e+00
	1.000000000000000e+00
	4.000000000000000e+00
	-3.000000000000000e-03
	3.000000000000000e-03
46		2.000000000000000e+00
	2.000000000000000e+00
	4.000000000000000e+00
	-2.000000000000000e-03
	2.000000000000000e-03
47		3.000000000000000e+00
	3.000000000000000e+00
	4.000000000000000e+00
	-1.000000000000000e-03
	1.000000000000000e-03
48		4.000000000000000e+00
	4.000000000000000e+00
	4.000000000000000e+00
	0.000000000000000e+00
	0.000000000000000e+00
49		5.000000000000000e+00
	5.000000000000000e+00
	4.000000000000000e+00
	1.000000000000000e-03
	-1.000000000000000e-03
50		6.000000000000000e+00
	6.000000000000000e+00
	4.000000000000000e+00
	2.000000000000000e-03
	-2.000000000000000e-03
51		7.000000000000000e+00
	7.000000000000000e+00
	4.000000000000000e+00
	3.000000000000000e-03
	-3.000000000000000e-03
52		8.000000000000000e+00
	8.000000000000000e+00
	4.000000000000000e+00
	4.000000000000000e-03
	-4.000000000000000e-03
53		9.000000000000000e+00
	9.000000000000000e+00
	4.000000000000000e+00
	5.000000000000001e-03
	-5.000000000000001e-03
54		1.000000000000000e+01
	1.000000000000000e+01
	4.000000000000000e+00
	6.000000000000000e-03
	-6.000000000000000e-03
55		0.000000000000000e+00
	0.000000000000000e+00
	5.000000000000000e+00
	-5.000000000000000e-03
	5.000000000000000e-03
56		1.000000000000000e+00
	1.000000000000000e+00
	5.000000000000000e+00
	-4.000000000000000e-03
	4.000000000000000e-03
57		2.000000000000000e+00
	2.000000000000000e+00
	5.000000000000000e+00
	-3.000000000000000e-03
	3.000000000000000e-03
58		3.000000000000000e+00
	3.000000000000000e+00
	5.000000000000000e+00
	-2.000000000000000e-03
	2.000000000000000e-03
59		4.000000000000000e+00
	4.000000000000000e+00
	5.000000000000000e+00
	-1.000000000000000e-03
	1.000000000000000e-03
60		5.000000000000000e+00
	5.000000000000000e+00
	5.000000000000000e+00
	0.000000000000000e+00
	0.000000000000000e+00
61		6.000000000000000e+00
	6.000000000000000e+00
	5.000000000000000e+00
	1.000000000000000e-03
	-1.000000000000000e-03
62		7.000000000000000e+00
	7.000000000000000e+00
	5.000000000000000e+00
	2.000000000000000e-03
	-2.000000000000000e-03
63		8.000000000000000e+00
	8.000000000000000e+00
	5.000000000000000e+00
	3.000000000000000e-03
	-3.000000000000000e-03
64		9.000000000000000e+00
	9.000000000000000e+00
	5.000000000000000e+00
	4.000000000000001e-03
	-4.000000000000001e-03
65		1.000000000000000e+01
	1.000000000000000e+01
	5.000000000000000e+00
	5.000000000000000e-03
	-5.000000000000000e-03
66		0.000000000000000e+00
	0.000000000000000e+00
	6.000000000000000e+00
	-6.000000000000000e-03
	6.000000000000000e-03
67		1.000000000000000e+00
	1.000000000000000e+00
	6.000000000000000e+00
	-5.000000000000000e-03
	5.000000000000000e-03
68		2.000000000000000e+00
	2.000000000000000e+00
	6.000000000000000e+00
	-4.000000000000000e-03
	4.000000000000000e-03
69		3.000000000000000e+00
	3.000000000000000e+00
	6.000000000000000e+00
	-3.000000000000000e-03
	3.000000000000000e-03
70		4.000000000000000e+00
	4.000000000000000e+00
	6.000000000000000e+00
	-2.000000000000000e-03
	2.000000000000000e-03
71		5.000000000000000e+00
	5.000000000000000e+00
	6.000000000000000e+00
	-1.000000000000000e-03
	1.000000000000000e-03
72		6.000000000000000e+00
	6.000000000000000e+00
	6.000000000000000e+00
	0.000000000000000e+00
	0.000000000000000e+00
73		7.000000000000000e+00
	7.000000000000000e+00
	6.000000000000000e+00
	1.000000000000000e-03
	-1.000000000000000e-03
74		8.000000000000000e+00
	8.000000000000000e+00
	6.000000000000000e+00
	2.000000000000000e-03
	-2.000000000000000e-03
75		9.000000000000000e+00
	9.000000000000000e+00
	6.000000000000000e+00
	3.000000000000001e-03
	-3.000000000000001e-03
76		1.000000000000000e+01
	1.000000000000000e+01
	6.000000000000000e+00
	4.000000000000000e-03
	-4.000000000000000e-03
77		0.000000000000000e+00
	0.000000000000000e+00
	7.000000000000000e+00
	-7.000000000000000e-03
	7.000000000000000e-03
78		1.000000000000000e+00
	1.000000000000000e+00
	7.000000000000000e+00
	-6.000000000000000e-03
	6.000000000000000e-03
79		2.000000000000000e+00
	2.000000000000000e+00
	7.000000000000000e+00
	-5.000000000000000e-03
	5.000000000000000e-03
80		3.000000000000000e+00
	3.000000000000000e+00
	7.000000000000000e+00
	-4.000000000000000e-03
	4.000000000000000e-03
81		4.000000000000000e+00
	4.000000000000000e+00
	7.000000000000000e+00
	-3.000000000000000e-03
	3.000000000000000e-03
82		5.000000000000000e+00
	5.000000000000000e+00
	7.000000000000000e+00
	-2.000000000000000e-03
	2.000000000000000e-03
83		6.000000000000000e+00
	6.000000000000000e+00
	7.000000000000000e+00
	-1.000000000000000e-03
	1.000000000000000e-03
84		7.000000000000000e+00
	7.000000000000000e+00
	7.000000000000000e+00
	0.000000000000000e+00
	0.000000000000000e+00
85		8.000000000000000e+00
	8.000000000000000e+00
	7.000000000000000e+00
	1.000000000000000e-03
	-1.000000000000000e-03
86		9.000000000000000e+00
	9.000000000000000e+00
	7.000000000000000e+00
	2.000000000000001e-03
	-2.000000000000001e-03
87		1.000000000000000e+01
	1.000000000000000e+01
	7.000000000000000e+00
	3.000000000000000e-03
	-3.000000000000000e-03
88		0.000000000000000e+00
	0.000000000000000e+00
	8.000000000000000e+00
	-8.000000000000000e-03
	8.000000000000000e-03
89		1.000000000000000e+00
	1.000000000000000e+00
	8.000000000000000e+00
	-7.000000000000000e-03
	7.000000000000000e-03
90		2.000000000000000e+00
	2.000000000000000e+00
	8.000000000000000e+00
	-6.000000000000000e-03
	6.000000000000000e-03
91		3.000000000000000e+00
	3.000000000000000e+00
	8.000000000000000e+00
	-5.000000000000000e-03
	5.000000000000000e-03
92		4.000000000000000e+00
	4.000000000000000e+00
	8.000000000000000e+00
	-4.000000000000000e-03
	4.000000000000000e-03
93		5.000000000000000e+00
	5.000000000000000e+00
	8.000000000000000e+00
	-3.000000000000000e-03
	3.000000000000000e-03
94		6.000000000000000e+00
	6.000000000000000e+00
	8.000000000000000e+00
	-2.000000000000000e-03
	2.000000000000000e-03
95		7.000000000000000e+00
	7.000000000000000e+00
	8.000000000000000e+00
	-1.000000000000000e-03
	1.000000000000000e-03
96		8.000000000000000e+00
	8.000000000000000e+00
	8.000000000000000e+00
	0.000000000000000e+00
	0.000000000000000e+00
97		9.000000000000000e+00
	9.000000000000000e+00
	8.000000000000000e+00
	1.000000000000001e-03
	-1.000000000000001e-03
98		1.000000000000000e+01
	1.000000000000000e+01
	8.000000000000000e+00
	2.000000000000000e-03
	-2.000000000000000e-03
99		0.000000000000000e+00
	0.000000000000000e+00
	9.000000000000000e+00
	-9.000000000000001e-03
	9.000000000000001e-03
100		1.000000000000000e+00
	1.000000000000000e+00
	9.000000000000000e+00
	-8.000000000000000e-03
	8.000000000000000e-03
101		2.000000000000000e+00
	2.000000000000000e+00
	9.000000000000000e+00
	-7.000000000000001e-03
	7.000000000000001e-03
102		3.000000000000000e+00
	3.000000000000000e+00
	9.000000000000000e+00
	-6.000000000000001e-03
	6.000000000000001e-03
103		4.000000000000000e+00
	4.000000000000000e+00
	9.000000000000000e+00
	-5.000000000000001e-03
	5.000000000000001e-03
104		5.000000000000000e+00
	5.000000000000000e+00
	9.000000000000000e+00
	-4.000000000000001e-03
	4.000000000000001e-03
105		6.000000000000000e+00
	6.000000000000000e+00
	9.000000000000000e+00
	-3.000000000000001e-03
	3.000000000000001e-03
106		7.000000000000000e+00
	7.000000000000000e+00
	9.000000000000000e+00
	-2.000000000000001e-03
	2.000000000000001e-03
107		8.000000000000000e+00
	8.000000000000000e+00
	9.000000000000000e+00
	-1.000000000000001e-03
	1.000000000000001e-03
108		9.000000000000000e+00
	9.000000000000000e+00
	9.000000000000000e+00
	0.000000000000000e+00
	0.000000000000000e+00
109		1.000000000000000e+01
	1.000000000000000e+01
	9.000000000000000e+00
	9.999999999999992e-04
	-9.999999999999992e-04
110		0.000000000000000e+00
	0.000000000000000e+00
	1.000000000000000e+01
	-1.000000000000000e-02
	1.000000000000000e-02
111		1.000000000000000e+00
	1.000000000000000e+00
	1.000000000000000e+01
	-9.000000000000001e-03
	9.000000000000001e-03
112		2.000000000000000e+00
	2.000000000000000e+00
	1.000000000000000e+01
	-8.000000000000000e-03
	8.000000000000000e-03
113		3.000000000000000e+00
	3.000000000000000e+00
	1.000000000000000e+01
	-7.000000000000000e-03
	7.000000000000000e-03
114		4.000000000000000e+00
	4.000000000000000e+00
	1.000000000000000e+01
	-6.000000000000000e-03
	6.000000000000000e-03
115		5.000000000000000e+00
	5.000000000000000e+00
	1.000000000000000e+01
	-5.000000000000000e-03
	5.000000000000000e-03
116		6.000000000000000e+00
	6.000000000000000e+00
	1.000000000000000e+01
	-4.000000000000000e-03
	4.000000000000000e-03
117		7.000000000000000e+00
	7.000000000000000e+00
	1.000000000000000e+01
	-3.000000000000000e-03
	3.000000000000000e-03
118		8.000000000000000e+00
	8.000000000000000e+00
	1.000000000000000e+01
	-2.000000000000000e-03
	2.000000000000000e-03
119		9.000000000000000e+00
	9.000000000000000e+00
	1.000000000000000e+01
	-9.999999999999992e-04
	9.999999999999992e-04
120		1.000000000000000e+01
	1.000000000000000e+01
	1.000000000000000e+01
	0.000000000000000e+00
	0.000000000000000e+00
